!CSV A.01.01
!Keysight Technologies,N5242A,MY53222371,A.10.65.16
!Date: Friday, October 20, 2023 11:04:32
!Source: Standard

BEGIN CH1_DATA
Freq(Hz),S11(DB),S11(DEG)
100000000,-0.42449361,-64.158607
100600000,-0.42548442,-64.515503
101200000,-0.42708129,-64.88224
101800000,-0.43108067,-65.263268
102400000,-0.43232736,-65.628944
103000000,-0.43416929,-66.034462
103600000,-0.43851969,-66.413803
104200000,-0.43945915,-66.803833
104800000,-0.44330791,-67.182365
105400000,-0.4444952,-67.586601
106000000,-0.44946754,-67.982475
106600000,-0.45792556,-68.385696
107200000,-0.46008316,-68.778
107800000,-0.4680877,-69.184875
108400000,-0.47115171,-69.517342
109000000,-0.48110282,-69.924637
109600000,-0.49045217,-70.248306
110200000,-0.49239725,-70.611465
110800000,-0.50075418,-70.902863
111400000,-0.49063438,-71.289558
112000000,-0.48489359,-71.619339
112600000,-0.48881793,-72.007759
113200000,-0.48095658,-72.392792
113800000,-0.47891235,-72.78138
114400000,-0.48029345,-73.196838
115000000,-0.47755823,-73.584404
115600000,-0.48223546,-74.031807
116200000,-0.48383492,-74.431129
116800000,-0.48520854,-74.832428
117400000,-0.49664557,-75.249352
118000000,-0.49401987,-75.653687
118600000,-0.49927679,-76.018608
119200000,-0.50777632,-76.405838
119800000,-0.50511974,-76.813995
120400000,-0.5102843,-77.238403
121000000,-0.51169014,-77.609528
121600000,-0.51147461,-78.005814
122200000,-0.52000195,-78.412682
122800000,-0.52940053,-78.811653
123400000,-0.52624142,-79.219513
124000000,-0.52421975,-79.617439
124600000,-0.53919804,-80.005165
125200000,-0.5369786,-80.425377
125800000,-0.54263622,-80.815964
126400000,-0.54557759,-81.191071
127000000,-0.54985821,-81.670952
127600000,-0.55793202,-82.074074
128200000,-0.56117952,-82.484947
128800000,-0.56813496,-82.917336
129400000,-0.57803029,-83.297546
130000000,-0.58053458,-83.708382
130600000,-0.58617049,-84.127075
131200000,-0.59327972,-84.498764
131800000,-0.59676546,-84.945343
132400000,-0.60530609,-85.340599
133000000,-0.61730802,-85.769936
133600000,-0.62225652,-86.216644
134200000,-0.62629962,-86.622612
134800000,-0.64068896,-86.992989
135400000,-0.65080279,-87.463867
136000000,-0.66405725,-87.888153
136600000,-0.67189628,-88.284874
137200000,-0.68727541,-88.705551
137800000,-0.69531518,-89.098801
138400000,-0.70926744,-89.510857
139000000,-0.72252488,-89.894936
139600000,-0.73493564,-90.349686
140200000,-0.74934781,-90.791374
140800000,-0.76891291,-91.172424
141400000,-0.77876979,-91.605392
142000000,-0.80193162,-91.966187
142600000,-0.82157212,-92.401199
143200000,-0.84226149,-92.794792
143800000,-0.86787301,-93.167862
144400000,-0.88840431,-93.560867
145000000,-0.91413236,-93.904182
145600000,-0.93315411,-94.266518
146200000,-0.95569235,-94.580368
146800000,-0.98484898,-94.927307
147400000,-1.014098,-95.247253
148000000,-1.0315491,-95.550156
148600000,-1.0588787,-95.829201
149200000,-1.0893807,-96.042664
149800000,-1.1107267,-96.356636
150400000,-1.1370362,-96.516693
151000000,-1.153882,-96.721069
151600000,-1.1618365,-96.928284
152200000,-1.1738379,-97.185173
152800000,-1.1746759,-97.352432
153400000,-1.1865202,-97.506149
154000000,-1.1868582,-97.717529
154600000,-1.18312,-97.930168
155200000,-1.1824697,-98.138847
155800000,-1.1861762,-98.383392
156400000,-1.1824934,-98.606133
157000000,-1.1737096,-98.820274
157600000,-1.1678028,-99.079498
158200000,-1.164609,-99.294548
158800000,-1.1487442,-99.578087
159400000,-1.1289312,-99.809608
160000000,-1.1181936,-100.0728
160600000,-1.1098967,-100.37959
161200000,-1.0999267,-100.75278
161800000,-1.0718026,-101.09106
162400000,-1.0547352,-101.43355
163000000,-1.0390654,-101.76579
163600000,-1.0345131,-102.17532
164200000,-1.0286474,-102.53276
164800000,-1.0121382,-102.90179
165400000,-1.0109918,-103.28361
166000000,-0.99918121,-103.68853
166600000,-0.9873991,-104.05726
167200000,-0.98872393,-104.4295
167800000,-0.97919309,-104.80722
168400000,-0.97583663,-105.24213
169000000,-0.98070532,-105.60799
169600000,-0.96908748,-106.03585
170200000,-0.97596216,-106.42496
170800000,-0.97421587,-106.75334
171400000,-0.97305799,-107.13972
172000000,-0.9679752,-107.53177
172600000,-0.96514302,-107.88094
173200000,-0.95068336,-108.31226
173800000,-0.9455781,-108.68179
174400000,-0.94930428,-109.07138
175000000,-0.94100642,-109.48781
175600000,-0.94202536,-109.86467
176200000,-0.93316394,-110.29588
176800000,-0.93482286,-110.702
177400000,-0.93614233,-111.12653
178000000,-0.93619657,-111.55727
178600000,-0.93595642,-111.88541
179200000,-0.94341505,-112.25323
179800000,-0.94382906,-112.67757
180400000,-0.94586843,-113.10484
181000000,-0.94215697,-113.47148
181600000,-0.94080669,-113.88219
182200000,-0.94843835,-114.23689
182800000,-0.93951851,-114.62426
183400000,-0.9339363,-114.95373
184000000,-0.94317871,-115.44966
184600000,-0.93131655,-115.8907
185200000,-0.94484431,-116.24513
185800000,-0.94967377,-116.66383
186400000,-0.94872051,-117.13599
187000000,-0.94964135,-117.47883
187600000,-0.94888204,-117.82612
188200000,-0.95839465,-118.26105
188800000,-0.95597619,-118.63493
189400000,-0.95898795,-119.09017
190000000,-0.96143103,-119.45591
190600000,-0.96372956,-119.90058
191200000,-0.96616119,-120.25755
191800000,-0.96601921,-120.73863
192400000,-0.97116864,-121.12482
193000000,-0.97267443,-121.51942
193600000,-0.97473913,-121.92477
194200000,-0.98301083,-122.3094
194800000,-0.98951435,-122.73163
195400000,-0.98731554,-123.12801
196000000,-0.99513704,-123.57265
196600000,-0.99989581,-123.91846
197200000,-1.0073509,-124.32088
197800000,-1.0118717,-124.72803
198400000,-1.0071144,-125.14732
199000000,-1.0076935,-125.5717
199600000,-1.0146987,-126.00451
200200000,-1.0251098,-126.36537
200800000,-1.0221373,-126.78066
201400000,-1.0379785,-127.18073
202000000,-1.0489384,-127.57564
202600000,-1.0523329,-127.95657
203200000,-1.057373,-128.37862
203800000,-1.0652072,-128.76782
204400000,-1.0685724,-129.12852
205000000,-1.0774664,-129.54674
205600000,-1.0743048,-129.99658
206200000,-1.091784,-130.35767
206800000,-1.0935068,-130.74806
207400000,-1.0945139,-131.21921
208000000,-1.1101452,-131.62129
208600000,-1.108668,-132.03429
209200000,-1.1259596,-132.41576
209800000,-1.1311256,-132.81801
210400000,-1.1381364,-133.2757
211000000,-1.1543684,-133.61101
211600000,-1.1615847,-134.04945
212200000,-1.1680492,-134.38989
212800000,-1.1826775,-134.87378
213400000,-1.1947652,-135.23679
214000000,-1.2045923,-135.55544
214600000,-1.2212112,-135.92487
215200000,-1.224937,-136.36111
215800000,-1.2360828,-136.72078
216400000,-1.2475381,-137.04703
217000000,-1.2512099,-137.44482
217600000,-1.2618681,-137.76215
218200000,-1.267918,-138.16412
218800000,-1.2791232,-138.55945
219400000,-1.2766569,-138.92899
220000000,-1.2929236,-139.27702
220600000,-1.2994133,-139.6595
221200000,-1.3030077,-140.04424
221800000,-1.3135178,-140.36743
222400000,-1.3102202,-140.78745
223000000,-1.3183684,-141.13293
223600000,-1.3320737,-141.48122
224200000,-1.3416218,-141.87898
224800000,-1.3322567,-142.31198
225400000,-1.3481907,-142.65698
226000000,-1.3447393,-143.05284
226600000,-1.3527973,-143.46834
227200000,-1.3648278,-143.84244
227800000,-1.3687919,-144.2184
228400000,-1.3769988,-144.65187
229000000,-1.3964775,-145.04082
229600000,-1.4068735,-145.45323
230200000,-1.412358,-145.78154
230800000,-1.4230777,-146.16531
231400000,-1.4267852,-146.52129
232000000,-1.4329443,-146.89545
232600000,-1.4441127,-147.23395
233200000,-1.4489238,-147.64192
233800000,-1.4602159,-148.02519
234400000,-1.4686222,-148.44911
235000000,-1.4749238,-148.82004
235600000,-1.4846985,-149.20448
236200000,-1.4968318,-149.58098
236800000,-1.5094246,-150.01474
237400000,-1.5225853,-150.41647
238000000,-1.529693,-150.78076
238600000,-1.5364984,-151.18742
239200000,-1.5441322,-151.58714
239800000,-1.5564861,-151.8992
240400000,-1.5751127,-152.31496
241000000,-1.5844355,-152.73613
241600000,-1.6030105,-153.04787
242200000,-1.6193048,-153.47011
242800000,-1.6334438,-153.81905
243400000,-1.6438456,-154.18449
244000000,-1.6631132,-154.57971
244600000,-1.6799452,-154.90274
245200000,-1.690918,-155.24437
245800000,-1.7160107,-155.64435
246400000,-1.7184269,-155.94038
247000000,-1.7303796,-156.33926
247600000,-1.7502295,-156.55936
248200000,-1.7659512,-156.86943
248800000,-1.7845922,-157.248
249400000,-1.7947599,-157.52632
250000000,-1.7971975,-157.77271
250600000,-1.8078741,-158.09499
251200000,-1.8139336,-158.44469
251800000,-1.829187,-158.65373
252400000,-1.8437126,-159.01738
253000000,-1.8430448,-159.29636
253600000,-1.8536686,-159.66637
254200000,-1.8531709,-159.93922
254800000,-1.8624429,-160.26599
255400000,-1.8690132,-160.56892
256000000,-1.8933047,-160.8728
256600000,-1.8868852,-161.18916
257200000,-1.9042922,-161.44072
257800000,-1.9092734,-161.75926
258400000,-1.907923,-162.02132
259000000,-1.9278445,-162.30505
259600000,-1.927213,-162.64314
260200000,-1.9230059,-162.89348
260800000,-1.9380989,-163.29077
261400000,-1.9247601,-163.52661
262000000,-1.9342493,-163.74533
262600000,-1.9248803,-164.0979
263200000,-1.935082,-164.36967
263800000,-1.9248357,-164.62549
264400000,-1.9163636,-164.92564
265000000,-1.919121,-165.24158
265600000,-1.9094245,-165.52635
266200000,-1.8940948,-165.89172
266800000,-1.89747,-166.12723
267400000,-1.8921582,-166.45673
268000000,-1.8868618,-166.75613
268600000,-1.8722852,-167.12215
269200000,-1.872854,-167.51042
269800000,-1.856746,-167.80699
270400000,-1.8599038,-168.10928
271000000,-1.8589602,-168.45654
271600000,-1.8402725,-168.84044
272200000,-1.8333296,-169.12587
272800000,-1.8262346,-169.55859
273400000,-1.8102289,-169.93561
274000000,-1.8070738,-170.32956
274600000,-1.8056608,-170.64146
275200000,-1.7949334,-171.0152
275800000,-1.7942787,-171.40152
276400000,-1.7878319,-171.74298
277000000,-1.7778159,-172.12448
277600000,-1.7698909,-172.47556
278200000,-1.7664526,-172.87209
278800000,-1.7554781,-173.19759
279400000,-1.7469373,-173.6032
280000000,-1.7211577,-174.00385
280600000,-1.7268379,-174.32182
281200000,-1.7260224,-174.68454
281800000,-1.7040855,-175.20137
282400000,-1.6912577,-175.5219
283000000,-1.683719,-175.99005
283600000,-1.6735551,-176.40521
284200000,-1.6513138,-176.78873
284800000,-1.6542922,-177.15927
285400000,-1.6497645,-177.63597
286000000,-1.6357797,-178.06897
286600000,-1.6215619,-178.54047
287200000,-1.6209329,-178.99434
287800000,-1.6126095,-179.39111
288400000,-1.5987941,-179.87926
289000000,-1.5899605,179.60371
289600000,-1.5932237,179.22348
290200000,-1.5804155,178.77315
290800000,-1.5737566,178.26408
291400000,-1.5697521,177.82428
292000000,-1.565282,177.32091
292600000,-1.5595526,176.8362
293200000,-1.5644376,176.39958
293800000,-1.5674798,175.91444
294400000,-1.5726004,175.43549
295000000,-1.5725324,175.0491
295600000,-1.565816,174.51465
296200000,-1.560881,174.14566
296800000,-1.5738308,173.68878
297400000,-1.5642239,173.18991
298000000,-1.5566909,172.76529
298600000,-1.5570445,172.36969
299200000,-1.5677919,171.90384
299800000,-1.5523289,171.40511
300400000,-1.5447215,170.89049
301000000,-1.5425813,170.47061
301600000,-1.5394186,169.95975
302200000,-1.5416567,169.50816
302800000,-1.5348078,168.96786
303400000,-1.5414628,168.40269
304000000,-1.5290275,167.9906
304600000,-1.535599,167.45549
305200000,-1.5478092,166.899
305800000,-1.5366484,166.44064
306400000,-1.5397551,165.91904
307000000,-1.5523099,165.46115
307600000,-1.5563406,164.9257
308200000,-1.5631127,164.45163
308800000,-1.5628595,164.0206
309400000,-1.5785921,163.42053
310000000,-1.5724702,162.97681
310600000,-1.5729575,162.50189
311200000,-1.5855843,161.93483
311800000,-1.6036979,161.51276
312400000,-1.5982741,160.96674
313000000,-1.6099172,160.44379
313600000,-1.6093967,159.95724
314200000,-1.6155992,159.44498
314800000,-1.616099,158.94476
315400000,-1.6240176,158.44716
316000000,-1.6416614,157.91951
316600000,-1.6529872,157.43263
317200000,-1.6521971,156.94347
317800000,-1.6640918,156.38625
318400000,-1.6608483,155.93288
319000000,-1.6829748,155.46764
319600000,-1.6888273,154.87466
320200000,-1.7063427,154.4135
320800000,-1.7131598,153.89995
321400000,-1.7195655,153.42372
322000000,-1.729936,152.92841
322600000,-1.7545992,152.42639
323200000,-1.7614822,151.92705
323800000,-1.7735184,151.43921
324400000,-1.7843075,150.89992
325000000,-1.798946,150.41074
325600000,-1.7982347,149.91631
326200000,-1.8317475,149.42018
326800000,-1.833743,148.89746
327400000,-1.8462553,148.46898
328000000,-1.8613522,147.93422
328600000,-1.8684493,147.44823
329200000,-1.8755019,146.97209
329800000,-1.9046794,146.4487
330400000,-1.919085,145.94685
331000000,-1.9272685,145.44476
331600000,-1.9436231,144.98677
332200000,-1.9506658,144.48155
332800000,-1.9598871,144.00407
333400000,-1.9726317,143.42912
334000000,-1.9811432,143.03827
334600000,-1.9951869,142.48138
335200000,-2.0089829,141.92796
335800000,-2.009506,141.47713
336400000,-2.0302742,140.96799
337000000,-2.0433161,140.50626
337600000,-2.0580277,139.93642
338200000,-2.065167,139.48418
338800000,-2.0786619,138.90479
339400000,-2.0921979,138.38884
340000000,-2.1024716,137.90492
340600000,-2.1110806,137.38689
341200000,-2.1339951,136.84572
341800000,-2.1495149,136.33308
342400000,-2.1598866,135.85901
343000000,-2.1820731,135.31857
343600000,-2.186552,134.77208
344200000,-2.2048855,134.21393
344800000,-2.2129886,133.71387
345400000,-2.222621,133.146
346000000,-2.233201,132.70932
346600000,-2.2620432,132.12221
347200000,-2.2598276,131.57472
347800000,-2.2812569,131.05521
348400000,-2.2887201,130.53635
349000000,-2.3046172,130.00983
349600000,-2.3215289,129.4951
350200000,-2.3223495,128.83464
350800000,-2.3436437,128.26534
351400000,-2.3561332,127.65136
352000000,-2.3708086,127.1137
352600000,-2.3869333,126.50951
353200000,-2.3983717,125.97517
353800000,-2.4213269,125.30899
354400000,-2.4338372,124.78307
355000000,-2.4513674,124.23898
355600000,-2.4789128,123.64935
356200000,-2.474719,122.96603
356800000,-2.4916856,122.45985
357400000,-2.5096631,121.8695
358000000,-2.5276928,121.23075
358600000,-2.5534582,120.53306
359200000,-2.5758312,119.95532
359800000,-2.5803115,119.38547
360400000,-2.6084156,118.6957
361000000,-2.6396754,118.05833
361600000,-2.6532552,117.40027
362200000,-2.6751697,116.71674
362800000,-2.7053456,116.17297
363400000,-2.7282629,115.54153
364000000,-2.7522995,114.81963
364600000,-2.7827125,114.17597
365200000,-2.806978,113.51211
365800000,-2.8316677,112.86102
366400000,-2.8589914,112.17471
367000000,-2.8960719,111.5438
367600000,-2.9231691,110.81893
368200000,-2.9477093,110.14517
368800000,-2.9806871,109.50085
369400000,-3.0151958,108.81315
370000000,-3.0525775,108.11172
370600000,-3.0841591,107.47214
371200000,-3.1162822,106.79707
371800000,-3.158726,106.11753
372400000,-3.1884534,105.38541
373000000,-3.2195032,104.73415
373600000,-3.2459781,104.00665
374200000,-3.3044059,103.29495
374800000,-3.3329072,102.53043
375400000,-3.3720634,101.87723
376000000,-3.4110229,101.1334
376600000,-3.4504898,100.40513
377200000,-3.4894884,99.658997
377800000,-3.5307298,98.884392
378400000,-3.5815382,98.117989
379000000,-3.6125717,97.33548
379600000,-3.6699598,96.51841
380200000,-3.7224259,95.807327
380800000,-3.771903,94.991325
381400000,-3.8270504,94.185928
382000000,-3.8797252,93.392029
382600000,-3.940861,92.573097
383200000,-4.0091672,91.779465
383800000,-4.0624747,91.023102
384400000,-4.1400208,90.182831
385000000,-4.1949291,89.451965
385600000,-4.2700152,88.598701
386200000,-4.3293562,87.776131
386800000,-4.4044461,86.995689
387400000,-4.4757128,86.182129
388000000,-4.545856,85.443184
388600000,-4.6153975,84.560303
389200000,-4.7055516,83.828728
389800000,-4.7843714,82.967079
390400000,-4.869679,82.11898
391000000,-4.9553947,81.329018
391600000,-5.0352292,80.523865
392200000,-5.1297507,79.621796
392800000,-5.2166886,78.927032
393400000,-5.3105531,78.04995
394000000,-5.4090362,77.280556
394600000,-5.4957891,76.493668
395200000,-5.5994678,75.622192
395800000,-5.7083983,74.775749
396400000,-5.8019714,74.037857
397000000,-5.9091959,73.206207
397600000,-6.0285206,72.387939
398200000,-6.1313772,71.58551
398800000,-6.2446575,70.783775
399400000,-6.3596387,70.051064
400000000,-6.4663301,69.258141
400600000,-6.5897489,68.505814
401200000,-6.6963029,67.67157
401800000,-6.8297253,66.919838
402400000,-6.9437208,66.122063
403000000,-7.0535393,65.329033
403600000,-7.1788015,64.492256
404200000,-7.3166623,63.722237
404800000,-7.4325571,62.831558
405400000,-7.5601687,61.997524
406000000,-7.7026935,61.191597
406600000,-7.8296633,60.305252
407200000,-7.9782591,59.442741
407800000,-8.1231556,58.539207
408400000,-8.274621,57.715057
409000000,-8.4334688,56.777966
409600000,-8.5954638,55.904221
410200000,-8.7437172,55.041344
410800000,-8.9249229,54.158844
411400000,-9.0886736,53.292278
412000000,-9.2831373,52.430202
412600000,-9.4721947,51.516834
413200000,-9.6318283,50.637806
413800000,-9.8184185,49.827564
414400000,-10.01418,48.903641
415000000,-10.206676,47.930305
415600000,-10.39853,47.06168
416200000,-10.608346,46.127655
416800000,-10.807759,45.133602
417400000,-11.03881,44.151649
418000000,-11.258513,43.098946
418600000,-11.500038,42.093945
419200000,-11.73585,41.027466
419800000,-12.002488,39.918549
420400000,-12.259161,38.771431
421000000,-12.517874,37.763306
421600000,-12.837094,36.692841
422200000,-13.122266,35.558163
422800000,-13.440782,34.384834
423400000,-13.761179,33.340294
424000000,-14.09893,32.187077
424600000,-14.435266,31.069496
425200000,-14.834523,29.884121
425800000,-15.202326,28.699154
426400000,-15.60274,27.564203
427000000,-16.021566,26.20763
427600000,-16.489782,24.932083
428200000,-16.920834,23.676519
428800000,-17.418358,22.332064
429400000,-17.920298,20.934912
430000000,-18.465698,19.283224
430600000,-19.003912,18.386875
431200000,-19.59346,16.02529
431800000,-20.266369,13.979188
432400000,-20.957884,11.811656
433000000,-21.707758,9.4775476
433600000,-22.500448,6.8677568
434200000,-23.453026,3.4359088
434800000,-24.440294,-0.36600333
435400000,-25.554358,-4.4464364
436000000,-26.807184,-9.9005013
436600000,-28.071102,-16.547802
437200000,-29.4604,-26.366457
437800000,-30.898342,-38.392384
438400000,-31.985296,-53.69376
439000000,-32.488918,-73.273796
439600000,-32.092644,-91.610443
440200000,-31.045053,-107.06971
440800000,-29.693466,-118.17421
441400000,-28.274948,-127.56228
442000000,-27.020227,-134.84937
442600000,-25.801531,-140.36014
443200000,-24.68605,-144.74306
443800000,-23.696035,-148.41333
444400000,-22.826986,-151.6122
445000000,-22.044577,-154.87364
445600000,-21.305557,-157.49571
446200000,-20.626871,-159.47806
446800000,-20.040348,-161.68889
447400000,-19.525654,-163.39305
448000000,-18.979128,-165.42302
448600000,-18.523613,-167.00201
449200000,-18.10384,-168.4789
449800000,-17.71652,-169.89006
450400000,-17.347385,-171.05983
451000000,-16.999111,-172.31171
451600000,-16.645348,-173.22104
452200000,-16.329897,-174.15213
452800000,-16.044256,-175.0894
453400000,-15.721856,-175.87602
454000000,-15.422309,-176.61899
454600000,-15.16241,-177.3665
455200000,-14.876709,-177.97134
455800000,-14.594643,-178.67473
456400000,-14.325913,-179.25056
457000000,-14.052135,-179.89532
457600000,-13.801731,179.47066
458200000,-13.5352,178.72398
458800000,-13.283401,178.15221
459400000,-13.037615,177.53423
460000000,-12.787802,176.75417
460600000,-12.554132,176.02293
461200000,-12.330681,175.37302
461800000,-12.089831,174.5363
462400000,-11.879661,173.85249
463000000,-11.666656,173.03331
463600000,-11.448978,172.21326
464200000,-11.256196,171.41734
